Frequency (Hz)	Z' (Ω)	-Z'' (Ω)	Z (Ω)	-Phase (°)	Time (s)
10000	287.412897360708	23.230080044095	288.350152051515	4.62087324355487	1240.76598486737
7943.3	288.029318429116	19.1487597321901	288.665140385919	3.80353982903503	1241.85600486461
6309.6	288.595334702894	15.9410203140843	289.03526314436	3.16161028131149	1243.03602586164
5011.9	289.037999681528	13.4458720158376	289.350577559757	2.66344465652774	1244.21604685866
3981.1	289.487753268356	11.511202644641	289.716528832385	2.27711200895066	1245.38106985571
3162.3	289.90540708452	10.0405411410989	290.07922628697	1.98358073244189	1246.5360898528
2511.9	290.360956844242	8.94349285078772	290.498659762616	1.76422630361631	1247.72611484979
1995.3	290.992141202141	8.14922210933632	291.106228140853	1.60414650627966	1248.89613284684
1584.9	291.374472922337	7.5941463194438	291.473419935834	1.49297241594048	1250.03115684397
1258.9	291.999704189947	7.08100504569526	292.085548905579	1.3891527896666	1251.18117584107
1000	292.613941327052	7.07464177933336	292.699452024183	1.38499266301167	1252.35119783812
794.33	293.256053037018	7.07226546743165	293.341319254025	1.38149725952856	1253.63122283489
630.96	293.837508645926	7.13836791311775	293.924204147442	1.3916464365561	1254.78624483197
501.19	294.623175240008	7.42257063386821	294.716660444094	1.44317237621817	1255.97126682898
398.11	295.331009166649	7.77351572362164	295.43329623131	1.50775507621532	1257.11628782609
316.23	296.479924835094	8.20918387874154	296.593554431276	1.58604817269109	1258.29630982311
251.19	297.28109422349	8.72445019035965	297.40908697254	1.68100410248221	1259.50133182006
199.53	298.581426203371	9.33229766967534	298.727233196832	1.79022272505395	1260.66635281712
158.49	299.799997091675	10.2697918344355	299.975843828284	1.9619270840839	1261.86637581409
125.89	301.159805923803	10.9734083462652	301.359659534578	2.08677235885922	1263.10639681096
100	303.062447662519	11.8384192012656	303.293579477677	2.23698705576985	1264.34641980783
79.433	304.75892999204	12.8081144819872	305.027954795092	2.40655557040948	1265.61644580463
63.096	307.154903859302	12.2293233421324	307.398261729346	2.28001802309691	1266.93646980129
50.119	308.810326838208	14.220973409479	309.137597271237	2.63665570795308	1276.67164977671
39.811	311.090512428978	14.9443865045701	311.449260091146	2.7503009226761	1285.53681175433
31.623	313.576291095605	15.3233967447985	313.950468744791	2.79762259465482	1287.01184175061
25.119	315.692152055037	15.8324228905007	316.088912307477	2.8710616388424	1288.43186774702
19.953	317.796285005537	16.5514812662011	318.227010631445	2.98138775639237	1290.17690074262
15.849	319.934484989689	17.0865288249682	320.390424564942	3.05705341902278	1291.96193373811
12.589	322.285396638211	18.0034012244283	322.787855009907	3.19731505544666	1293.78196773351
10	324.283755554445	18.9222492265532	324.835351574128	3.33947366663719	1295.93200672809
7.9433	326.681671441801	20.2549085840267	327.308991287676	3.54790975327771	1298.09704472262
6.3096	328.707013502447	21.7229220796859	329.424021694499	3.78094935476422	1300.29208571708
5.0119	331.023529368898	23.6825212066881	331.869611152554	4.09215777539513	1302.59213071127
3.9811	333.483745177089	25.9731112638249	334.493663327215	4.45344509194735	1304.92217070539
3.1623	335.921634233809	28.7769911383409	337.151982887969	4.89633393248706	1307.3322156993
2.5119	338.805004825777	32.2466215171558	340.336121935749	5.43689273687881	1309.78726269311
1.9953	341.684748808527	36.6418489706615	343.643845666316	6.12093601028824	1312.31730868672
1.5849	344.822258888476	41.5957417114758	347.322034938008	6.87832727603713	1314.95235668006
1.2589	348.348545537868	47.7853501149074	351.610791734202	7.81090316439911	1317.64240867327
1	352.146259723207	55.1047210954752	356.431646356008	8.89366153091302	1320.81746566526
0.79433	357.350377934402	63.7594865511312	362.993890768321	10.1164237120287	1323.89252465749
0.63096	361.915024348562	74.4819805440116	369.499729736002	11.6290873537841	1327.29258664891
0.50119	366.588844581576	86.6308821363148	376.685931130128	13.2959961231465	1330.95265263967
0.39811	371.992101591384	102.055967211756	385.737662265304	15.3416122347058	1335.0177306294
0.31623	380.016229358602	122.329595207276	399.220320674568	17.8436909897199	1339.68281661763
0.25119	386.42500952348	143.072437177105	412.060687599555	20.3168863079472	1344.99791360421
0.19953	394.47517523988	169.634229893131	429.402417124042	23.2689189020849	1351.14302958869
0.15849	403.418630439972	204.375704235554	452.234474435377	26.8672059677186	1358.3081595706
0.12589	418.395704312888	244.53779345805	484.617063068161	30.3048062816706	1366.75331854928
0.1	423.44624335418	290.62340834454	513.584157162742	34.4629360489219	1376.8435045238
0.079433	443.822946919214	357.024696441529	569.601125421309	38.8142585582652	1388.91373049333
0.063096	446.911460287601	438.70809248297	626.254456069131	44.4692925312993	1403.55399945637
0.050119	461.323460607263	525.890590202934	699.557180057965	48.7420077521755	1421.54433041095
0.039811	492.21758309868	650.566969992764	815.791352955565	52.8889283474548	1443.64473935515
0.031623	521.024671133055	825.264327322727	975.975367455932	57.734029827968	1470.90024628633
0.025119	534.292332476699	1037.36511630077	1166.873892527	62.7493805823916	1504.66587420108
0.019953	549.404326864928	1273.38923165259	1386.85444429713	66.6621968307058	1546.64164909511
0.015849	567.037273760631	1569.35978633884	1668.65856567825	70.1343213972556	1598.90261596316
0.012589	578.625624913316	1941.99722133888	2026.36640849927	73.4083699243127	1664.14382379844
0.01	761.216602434063	2368.95760745168	2488.25458137314	72.186242057249	1745.65033359266
