Frequency (Hz)	Z' (Ω)	-Z'' (Ω)	Z (Ω)	-Phase (°)	Time (s)
10000	446.089211029856	34.274458192438	447.403981521874	4.39358561190694	318.426346196051
7943.3	300.670922084411	24.714503421601	301.684951673872	4.69902593505059	321.176397189108
6309.6	301.764915677481	22.3723279565378	302.593102023216	4.24005270724845	322.251415186393
5011.9	302.764127364326	20.9165656413728	303.485781441095	3.95201957051129	323.416434183452
3981.1	303.914054331813	20.2510707957452	304.588014026774	3.8122230303491	324.586458180498
3162.3	305.21043026576	20.2684870741265	305.882687171543	3.79933326081045	325.741477177582
2511.9	306.639078500843	20.9482745589045	307.353793975024	3.9081311359681	326.911499174628
1995.3	308.181257997975	22.224512920783	308.981579961946	4.12474865987443	328.081520171674
1584.9	309.970516835991	24.1324417652681	310.908501094977	4.45172525197966	329.221542168796
1258.9	311.804049789609	26.7871625134874	312.952580338819	4.91023805789412	330.366563165905
1000	314.248870539474	29.9401708046305	315.671928532053	5.44244731892479	331.541586162938
794.33	316.768142103148	34.0098480285681	318.588646399093	6.12809318400394	332.801609159757
630.96	319.679457328038	38.9252000493901	322.040566755858	6.94234349082785	333.951629156853
501.19	323.003460222679	44.8610016074311	326.10388648565	7.90706001107373	335.131651153874
398.11	326.701870258727	52.0709803122395	330.825481215138	9.05584832492443	336.266674151008
316.23	330.953159909567	60.6031543825448	336.456143316246	10.376866200865	337.441694148042
251.19	335.840725451267	70.9057771862538	343.244260126837	11.9217296706186	338.636718145024
199.53	341.426578895339	83.2057546802323	351.418989794351	13.6960282793205	339.80673714207
158.49	347.378569017401	97.8526125273979	360.89749790074	15.7319275377233	341.001759139053
125.89	353.966273861894	115.175786374514	372.233239782077	18.0241796916247	342.276786135834
100	361.699373740001	136.342013322604	386.543117337213	20.6538561550215	343.501808132741
79.433	369.613325887998	162.013745673646	403.562218822813	23.6694287817852	344.771831129535
63.096	378.191231671097	191.579343003088	423.947228294273	26.8652864411784	346.096854126189
50.119	388.366164101192	232.800799498012	452.796300410668	30.9400048689742	347.321877123097
39.811	399.519108902533	281.661010562429	488.82352976235	35.1838403368775	356.2720431005
31.623	414.444682202509	343.018092927172	537.98309144557	39.6130996596674	357.742070096788
25.119	433.703187016578	418.651030266656	602.79941902068	43.9882898422159	359.162098093203
19.953	459.77387529721	512.2214331288	688.304302588859	48.0886078933011	360.897128088822
15.849	497.451858256286	625.277614094915	799.018426552768	51.4953092276374	362.687161084303
12.589	550.647771596333	760.89950870041	939.244925833796	54.1074918910774	364.512196079695
10	623.711414483345	919.368259198296	1110.96981263134	55.8465197562206	366.647235074305
7.9433	720.816112402775	1100.2998477199	1315.38421109267	56.7708391721644	368.812275068839
6.3096	848.202267369944	1302.93495107725	1554.69822573713	56.9361316165163	372.847352058651
5.0119	1000.68755404724	1516.2523627572	1816.69942709075	56.5762155261345	376.077410050496
3.9811	1180.55815131103	1748.79234685445	2109.97445980837	55.9778744906852	378.252449045004
3.1623	1377.50676263797	1997.54137528771	2426.45758815184	55.4098102576598	380.652494038945
2.5119	1589.58686890119	2275.31006201012	2775.57602887537	55.0609150530727	383.117540032721
1.9953	1814.98390276685	2593.77571675016	3165.72883173932	55.0177523179773	385.662587026296
1.5849	2049.37728378237	2969.75440928072	3608.23897527942	55.3910995841233	388.217634019845
1.2589	2294.70591437203	3426.16904194185	4123.62820067653	56.1874649262108	390.907685013053
1	2557.47873747727	3972.35970952038	4724.44061815461	57.2258152964985	394.017742005201
0.79433	2849.85385015163	4639.53172725299	5444.89867815841	58.4394811900393	397.147798997298
0.63096	3176.37043055217	5457.33576630923	6314.41547400265	59.7990184058104	400.532863988752
0.50119	3536.98015801346	6455.5792217583	7361.02789877734	61.2818816125342	404.247930979372
0.39811	3960.13913056337	7682.81942342733	8643.4030466253	62.7309821004108	408.318007969096
0.31623	4477.09174212679	9201.41662413379	10232.8108727908	64.0540445666665	412.973092957343
0.25119	5089.97617990881	11041.7982546927	12158.5018077629	65.2515514957505	418.288193943924
0.19953	5850.78886434862	13296.9812875257	14527.2654583027	66.2500827818449	424.423305928434
0.15849	6866.97871210567	16053.2725809691	17460.3252315473	66.8406052435113	431.498434910571
0.12589	8170.62090241	19338.9545880495	20994.147053156	67.0961619442686	439.938591889262
0.1	9822.51089030289	23386.248726263	25365.298138929	67.2169977612223	449.993779863875
0.079433	12230.5848670794	27999.0594876189	30553.7974461777	66.4032708831661	475.49925479948
0.063096	15242.4895034315	33852.4487469932	37125.7561866425	65.7597466873979	490.124523762555
0.050119	19403.6924072853	40359.0468738241	44781.2007833653	64.3228332088462	508.069853717247
0.039811	25145.8627332489	47619.8649878355	53851.3319617916	62.1635242529091	530.170264661449
0.031623	32838.4907861505	55618.0851811981	64588.9919129808	59.4411958586377	557.420769592648
0.025119	42887.9532269383	63752.565938258	76835.9694134718	56.0702870858054	591.186391507398
0.019953	55781.5480050266	71258.6935902536	90495.2071108008	51.9460395428413	633.062167401672
0.015849	70666.0266738651	77010.2133910845	104519.18624067	47.4599201052275	685.3331362697
0.012589	88267.5482183535	80161.8061073354	119235.377413205	42.2447393943643	750.574345104982
0.01	105869.357215786	79565.9902729426	132435.144902695	36.926649504521	832.170854898971
